T0530 8799:916 SEGGER J-Link V6.44a Log File (0000ms, 3357ms total)
T0530 8799:916 DLL Compiled: Mar  8 2019 17:31:48 (0000ms, 3357ms total)
T0530 8799:916 Logging started @ 2025-08-11 17:12 (0000ms, 3357ms total)
T0530 8799:916 JLINK_SetWarnOutHandler(...) (0000ms, 3357ms total)
T0530 8799:916 JLINK_OpenEx(...)
Firmware: J-Link V9 compiled Feb  2 2021 16:34:10
Hardware: V9.50
S/N: 59522939
Feature(s): GDB, RDI, FlashBP, FlashDL, JFlash, RDDI
TELNET listener socket opened on port 19021Device "CORTEX-M33" selected.WEBSRV 
Starting webserver (0020ms, 3377ms total)
T0530 8799:916 WEBSRV Webserver running on local port 19080 (0020ms, 3377ms total)
T0530 8799:916   returns O.K. (0020ms, 3377ms total)
T0530 8799:936 JLINK_GetEmuCaps()  returns 0xB9FF7BBF (0000ms, 3377ms total)
T0530 8799:936 JLINK_TIF_GetAvailable(...) (0000ms, 3377ms total)
T0530 8799:936 JLINK_SetErrorOutHandler(...) (0000ms, 3377ms total)
T0530 8799:936 JLINK_ExecCommand("ProjectFile = "D:\Personal\Desktop\GD32\GD32E5\GD32E50x_Demo_Suites_V1.4.0\GD32E503V_EVAL_Demo_Suites\Projects\Flash_Driver\MDK-ARM\JLinkSettings.ini"", ...). Device "CORTEX-M33" selected.  returns 0x00 (0003ms, 3380ms total)
T0530 8799:944 JLINK_ExecCommand("Device = GD32E503VE", ...). Device "CORTEX-M33" selected.  returns 0x00 (0003ms, 3383ms total)
T0530 8799:947 JLINK_ExecCommand("DisableConnectionTimeout", ...).   returns 0x01 (0000ms, 3383ms total)
T0530 8799:947 JLINK_GetHardwareVersion()  returns 0x17318 (0000ms, 3383ms total)
T0530 8799:947 JLINK_GetDLLVersion()  returns 64401 (0000ms, 3383ms total)
T0530 8799:947 JLINK_GetFirmwareString(...) (0000ms, 3383ms total)
T0530 8799:962 JLINK_GetDLLVersion()  returns 64401 (0000ms, 3383ms total)
T0530 8799:962 JLINK_GetCompileDateTime() (0000ms, 3383ms total)
T0530 8799:966 JLINK_GetFirmwareString(...) (0000ms, 3383ms total)
T0530 8799:968 JLINK_GetHardwareVersion()  returns 0x17318 (0000ms, 3383ms total)
T0530 8799:973 JLINK_TIF_Select(JLINKARM_TIF_SWD)  returns 0x00 (0002ms, 3385ms total)
T0530 8799:975 JLINK_SetSpeed(2000) (0000ms, 3385ms total)
T0530 8799:975 JLINK_GetId() >0x10B TIF>Found SW-DP with ID 0x0BE12477 >0x0D TIF> >0x28 TIF> >0x0D TIF> >0x28 TIF> >0x0D TIF> >0x28 TIF> >0x0D TIF> >0x28 TIF> >0x0D TIF> >0x21 TIF> >0x0D TIF> >0x28 TIF>Scanning AP map to find all available APs >0x0D TIF> >0x28 TIF> >0x0D TIF> >0x21 TIF> >0x0D TIF> >0x21 TIF> >0x0D TIF> >0x28 TIF> >0x0D TIF> >0x21 TIF> >0x0D TIF> >0x21 TIF>AP[1]: Stopped AP scan as end of AP map has been reachedAP[0]: AHB-AP (IDR: 0x14770015)Iterating through AP map to find AHB-AP to use
 >0x42 TIF> >0x28 TIF> >0x0D TIF> >0x28 TIF> >0x0D TIF> >0x21 TIF> >0x0D TIF> >0x21 TIF> >0x42 TIF> >0x28 TIF> >0x0D TIF> >0x28 TIF> >0x0D TIF> >0x28 TIF> >0x0D TIF> >0x21 TIF> >0x0D TIF> >0x21 TIF>AP[0]: Core foundAP[0]: AHB-AP ROM base: 0xE00FE000 >0x0D TIF> >0x28 TIF> >0x0D TIF> >0x28 TIF> >0x0D TIF> >0x28 TIF> >0x0D TIF> >0x21 TIF> >0x0D TIF> >0x21 TIF>CPUID register: 0x410FD214. Implementer code: 0x41 (ARM)Found Cortex-M33 r0p4, Little endian. -- Max. mem block: 0x00011028
 -- CPU_ReadMem(4 bytes @ 0xE000EDF0) -- CPU_WriteMem(4 bytes @ 0xE000EDF0) -- CPU_ReadMem(4 bytes @ 0xE0002000)FPUnit: 8 code (BP) slots and 0 literal slots -- CPU_ReadMem(4 bytes @ 0xE000EDFC) -- CPU_WriteMem(4 bytes @ 0xE000EDFC) -- CPU_ReadMem(4 bytes @ 0xE0001000) -- CPU_WriteMem(4 bytes @ 0xE0001000) -- CPU_ReadMem(4 bytes @ 0xE000ED88) -- CPU_WriteMem(4 bytes @ 0xE000ED88) -- CPU_ReadMem(4 bytes @ 0xE000ED88) -- CPU_WriteMem(4 bytes @ 0xE000ED88) -- CPU_ReadMem(4 bytes @ 0xE000EFB8)
Security extension: not implementedCoreSight components:ROMTbl[0] @ E00FE000 -- CPU_ReadMem(16 bytes @ 0xE00FE000) -- CPU_ReadMem(16 bytes @ 0xE00FFFF0) -- CPU_ReadMem(16 bytes @ 0xE00FFFE0)ROMTbl[0][0]: E00FF000, CID: B105100D, PID: 000BB4C9 ROM TableROMTbl[1] @ E00FF000 -- CPU_ReadMem(16 bytes @ 0xE00FF000) -- CPU_ReadMem(16 bytes @ 0xE000EFF0) -- CPU_ReadMem(16 bytes @ 0xE000EFE0) -- CPU_ReadMem(4 bytes @ 0xE000EFBC) -- CPU_ReadMem(4 bytes @ 0xE000EFCC)
ROMTbl[1][0]: E000E000, CID: B105900D, PID: 000BBD21 Cortex-M33 -- CPU_ReadMem(16 bytes @ 0xE0001FF0) -- CPU_ReadMem(16 bytes @ 0xE0001FE0) -- CPU_ReadMem(4 bytes @ 0xE0001FBC) -- CPU_ReadMem(4 bytes @ 0xE0001FCC)ROMTbl[1][1]: E0001000, CID: B105900D, PID: 000BBD21 DWT -- CPU_ReadMem(16 bytes @ 0xE0002FF0) -- CPU_ReadMem(16 bytes @ 0xE0002FE0) -- CPU_ReadMem(4 bytes @ 0xE0002FBC) -- CPU_ReadMem(4 bytes @ 0xE0002FCC)ROMTbl[1][2]: E0002000, CID: B105900D, PID: 000BBD21 FPB
 -- CPU_ReadMem(16 bytes @ 0xE0000FF0) -- CPU_ReadMem(16 bytes @ 0xE0000FE0) -- CPU_ReadMem(4 bytes @ 0xE0000FBC) -- CPU_ReadMem(4 bytes @ 0xE0000FCC)ROMTbl[1][3]: E0000000, CID: B105900D, PID: 000BBD21 ITM -- CPU_ReadMem(16 bytes @ 0xE00FF010) -- CPU_ReadMem(16 bytes @ 0xE00FF020) -- CPU_ReadMem(16 bytes @ 0xE0040FF0) -- CPU_ReadMem(16 bytes @ 0xE0040FE0) -- CPU_ReadMem(4 bytes @ 0xE0040FBC) -- CPU_ReadMem(4 bytes @ 0xE0040FCC)ROMTbl[0][1]: E0040000, CID: B105900D, PID: 000BBD21 Cortex-M33
 -- CPU_ReadMem(16 bytes @ 0xE00FE010) >0x0D TIF> >0x21 TIF>  returns 0x0BE12477 (0159ms, 3544ms total)
T0530 8800:134 JLINK_GetDLLVersion()  returns 64401 (0000ms, 3544ms total)
T0530 8800:134 JLINK_CORE_GetFound()  returns 0xE0200FF (0000ms, 3544ms total)
T0530 8800:134 JLINK_GetDebugInfo(0x100 = JLINKARM_ROM_TABLE_ADDR_INDEX) -- Value=0xE00FE000  returns 0x00 (0000ms, 3544ms total)
T0530 8800:136 JLINK_GetDebugInfo(0x100 = JLINKARM_ROM_TABLE_ADDR_INDEX) -- Value=0xE00FE000  returns 0x00 (0000ms, 3544ms total)
T0530 8800:136 JLINK_GetDebugInfo(0x101 = JLINKARM_DEBUG_INFO_ETM_ADDR_INDEX) -- Value=0x00000000  returns 0x00 (0000ms, 3544ms total)
T0530 8800:136 JLINK_ReadMemEx(0xE0041FF0, 0x0010 Bytes, ..., Flags = 0x02000004) -- CPU_ReadMem(16 bytes @ 0xE0041FF0) - Data: 00 00 00 00 00 00 00 00 00 00 00 00 00 00 00 00  returns 0x10 (0000ms, 3544ms total)
T0530 8800:136 JLINK_GetDebugInfo(0x102 = JLINKARM_DEBUG_INFO_MTB_ADDR_INDEX) -- Value=0x00000000  returns 0x00 (0000ms, 3544ms total)
T0530 8800:136 JLINK_GetDebugInfo(0x103 = JLINKARM_DEBUG_INFO_TPIU_ADDR_INDEX) -- Value=0x00000000  returns 0x00 (0000ms, 3544ms total)
T0530 8800:136 JLINK_ReadMemEx(0xE0040FF0, 0x0010 Bytes, ..., Flags = 0x02000004) -- CPU_ReadMem(16 bytes @ 0xE0040FF0) - Data: 0D 00 00 00 90 00 00 00 05 00 00 00 B1 00 00 00  returns 0x10 (0001ms, 3545ms total)
T0530 8800:137 JLINK_GetDebugInfo(0x104 = JLINKARM_DEBUG_INFO_ITM_ADDR_INDEX) -- Value=0xE0000000  returns 0x00 (0000ms, 3545ms total)
T0530 8800:137 JLINK_GetDebugInfo(0x105 = JLINKARM_DEBUG_INFO_DWT_ADDR_INDEX) -- Value=0xE0001000  returns 0x00 (0000ms, 3545ms total)
T0530 8800:137 JLINK_GetDebugInfo(0x106 = JLINKARM_DEBUG_INFO_FPB_ADDR_INDEX) -- Value=0xE0002000  returns 0x00 (0000ms, 3545ms total)
T0530 8800:137 JLINK_GetDebugInfo(0x107 = JLINKARM_DEBUG_INFO_NVIC_ADDR_INDEX) -- Value=0xE000E000  returns 0x00 (0000ms, 3545ms total)
T0530 8800:137 JLINK_GetDebugInfo(0x10C = JLINKARM_DEBUG_INFO_DBG_ADDR_INDEX) -- Value=0xE000EDF0  returns 0x00 (0000ms, 3545ms total)
T0530 8800:137 JLINK_GetDebugInfo(0x01 = Unknown) -- Value=0x00000001  returns 0x00 (0000ms, 3545ms total)
T0530 8800:137 JLINK_ReadMemU32(0xE000ED00, 0x0001 Items, ...) -- CPU_ReadMem(4 bytes @ 0xE000ED00) - Data: 14 D2 0F 41  returns 1 (0000ms, 3545ms total)
T0530 8800:137 JLINK_GetDebugInfo(0x10F = JLINKARM_DEBUG_INFO_HAS_CORTEX_M_SECURITY_EXT_INDEX) -- Value=0x00000000  returns 0x00 (0000ms, 3545ms total)
T0530 8800:137 JLINK_SetResetType(JLINKARM_CM3_RESET_TYPE_NORMAL)  returns JLINKARM_CM3_RESET_TYPE_NORMAL (0000ms, 3545ms total)
T0530 8800:137 JLINK_Reset() -- CPU is running -- CPU_WriteMem(4 bytes @ 0xE000EDF0) -- CPU is running -- CPU_WriteMem(4 bytes @ 0xE000EDFC)Reset: Halt core after reset via DEMCR.VC_CORERESET. >0x35 TIF>Reset: Reset device via AIRCR.SYSRESETREQ. -- CPU is running -- CPU_WriteMem(4 bytes @ 0xE000ED0C) >0x0D TIF> >0x28 TIF> -- CPU_ReadMem(4 bytes @ 0xE000EDF0) -- CPU_ReadMem(4 bytes @ 0xE000EDF0) -- CPU is running -- CPU_WriteMem(4 bytes @ 0xE000EDF0) -- CPU is running -- CPU_WriteMem(4 bytes @ 0xE000EDFC)
 -- CPU_ReadMem(4 bytes @ 0xE000EDF0) -- CPU_ReadMem(4 bytes @ 0xE000EE08) -- CPU_WriteMem(4 bytes @ 0xE0002000) -- CPU_ReadMem(4 bytes @ 0xE000EDFC) -- CPU_ReadMem(4 bytes @ 0xE0001000) -- CPU_ReadMem(4 bytes @ 0xE000EE08) (0070ms, 3615ms total)
T0530 8800:207 JLINK_Halt()  returns 0x00 (0000ms, 3615ms total)
T0530 8800:207 JLINK_ReadMemU32(0xE000EDF0, 0x0001 Items, ...) -- CPU_ReadMem(4 bytes @ 0xE000EDF0) - Data: 03 00 03 00  returns 1 (0000ms, 3615ms total)
T0530 8800:207 JLINK_WriteU32(0xE000EDF0, 0xA05F0003) -- CPU_WriteMem(4 bytes @ 0xE000EDF0)  returns 0 (0000ms, 3615ms total)
T0530 8800:207 JLINK_WriteU32(0xE000EDFC, 0x01000000) -- CPU_WriteMem(4 bytes @ 0xE000EDFC)  returns 0 (0000ms, 3615ms total)
T0530 8800:214 JLINK_GetHWStatus(...)  returns 0x00 (0001ms, 3616ms total)
T0530 8800:220 JLINK_GetNumBPUnits(Type = 0xFFFFFF00)  returns 0x08 (0000ms, 3616ms total)
T0530 8800:220 JLINK_GetNumBPUnits(Type = 0xF0)  returns 0x2000 (0000ms, 3616ms total)
T0530 8800:220 JLINK_GetNumWPUnits()  returns 0x04 (0000ms, 3616ms total)
T0530 8800:226 JLINK_GetSpeed()  returns 0x7D0 (0000ms, 3616ms total)
T0530 8800:228 JLINK_ReadMemU32(0xE000E004, 0x0001 Items, ...) -- CPU_ReadMem(4 bytes @ 0xE000E004) - Data: 02 00 00 00  returns 1 (0000ms, 3616ms total)
T0530 8800:228 JLINK_ReadMemU32(0xE000E004, 0x0001 Items, ...) -- CPU_ReadMem(4 bytes @ 0xE000E004) - Data: 02 00 00 00  returns 1 (0000ms, 3616ms total)
T0530 8800:228 JLINK_WriteMemEx(0xE0001000, 0x001C Bytes, ..., Flags = 0x02000004) - Data: 01 00 00 00 00 00 00 00 00 00 00 00 00 00 00 00 ... -- CPU_WriteMem(28 bytes @ 0xE0001000)  returns 0x1C (0002ms, 3618ms total)
T0530 8800:230 JLINK_Halt()  returns 0x00 (0000ms, 3618ms total)
T0530 8800:230 JLINK_IsHalted()  returns TRUE (0000ms, 3618ms total)
T0530 8800:232 JLINK_WriteMem(0x20000000, 0x01F4 Bytes, ...) - Data: 00 BE 0A E0 0D 78 2D 06 68 40 08 24 40 00 00 D3 ... -- CPU_WriteMem(500 bytes @ 0x20000000)  returns 0x1F4 (0005ms, 3623ms total)
T0530 8800:237 JLINK_WriteReg(R0, 0x08000000) -- CPU_ReadMem(4 bytes @ 0xE000EE08)  returns 0x00 (0000ms, 3623ms total)
T0530 8800:237 JLINK_WriteReg(R1, 0x00B71B00)  returns 0x00 (0000ms, 3623ms total)
T0530 8800:237 JLINK_WriteReg(R2, 0x00000001)  returns 0x00 (0000ms, 3623ms total)
T0530 8800:237 JLINK_WriteReg(R3, 0x00000000)  returns 0x00 (0000ms, 3623ms total)
T0530 8800:237 JLINK_WriteReg(R4, 0x00000000)  returns 0x00 (0000ms, 3623ms total)
T0530 8800:237 JLINK_WriteReg(R5, 0x00000000)  returns 0x00 (0000ms, 3623ms total)
T0530 8800:237 JLINK_WriteReg(R6, 0x00000000)  returns 0x00 (0000ms, 3623ms total)
T0530 8800:237 JLINK_WriteReg(R7, 0x00000000)  returns 0x00 (0000ms, 3623ms total)
T0530 8800:237 JLINK_WriteReg(R8, 0x00000000)  returns 0x00 (0000ms, 3623ms total)
T0530 8800:237 JLINK_WriteReg(R9, 0x200001F0)  returns 0x00 (0000ms, 3623ms total)
T0530 8800:237 JLINK_WriteReg(R10, 0x00000000)  returns 0x00 (0000ms, 3623ms total)
T0530 8800:237 JLINK_WriteReg(R11, 0x00000000)  returns 0x00 (0000ms, 3623ms total)
T0530 8800:237 JLINK_WriteReg(R12, 0x00000000)  returns 0x00 (0000ms, 3623ms total)
T0530 8800:237 JLINK_WriteReg(R13 (SP), 0x20000800)  returns 0x00 (0000ms, 3623ms total)
T0530 8800:237 JLINK_WriteReg(R14, 0x20000001)  returns 0x00 (0000ms, 3623ms total)
T0530 8800:237 JLINK_WriteReg(R15 (PC), 0x20000038)  returns 0x00 (0000ms, 3623ms total)
T0530 8800:237 JLINK_WriteReg(XPSR, 0x01000000)  returns 0x00 (0000ms, 3623ms total)
T0530 8800:237 JLINK_WriteReg(MSP, 0x20000800)  returns 0x00 (0000ms, 3623ms total)
T0530 8800:237 JLINK_WriteReg(PSP, 0x20000800)  returns 0x00 (0000ms, 3623ms total)
T0530 8800:237 JLINK_WriteReg(CFBP, 0x00000000)  returns 0x00 (0000ms, 3623ms total)
T0530 8800:237 JLINK_SetBPEx(Addr = 0x20000000, Type = 0xFFFFFFF2)  returns 0x00000001 (0000ms, 3623ms total)
T0530 8800:237 JLINK_Go() -- CPU_WriteMem(4 bytes @ 0xE0002000) -- CPU_ReadMem(4 bytes @ 0xE0001000) -- CPU_WriteMem(4 bytes @ 0xE0002008) -- CPU_WriteMem(4 bytes @ 0xE000200C) -- CPU_WriteMem(4 bytes @ 0xE0002010) -- CPU_WriteMem(4 bytes @ 0xE0002014) -- CPU_WriteMem(4 bytes @ 0xE0002018) -- CPU_WriteMem(4 bytes @ 0xE000201C) -- CPU_WriteMem(4 bytes @ 0xE0002020) -- CPU_WriteMem(4 bytes @ 0xE0002024) -- CPU_WriteMem(4 bytes @ 0xE0001004) (0006ms, 3629ms total)
T0530 8800:243 JLINK_IsHalted()  returns TRUE (0003ms, 3632ms total)
T0530 8800:246 JLINK_ReadReg(R15 (PC)) -- CPU_ReadMem(4 bytes @ 0xE000EE08)  returns 0x20000000 (0000ms, 3629ms total)
T0530 8800:246 JLINK_ClrBPEx(BPHandle = 0x00000001)  returns 0x00 (0000ms, 3629ms total)
T0530 8800:246 JLINK_ReadReg(R0)  returns 0x00000000 (0000ms, 3629ms total)
T0530 8800:247 JLINK_WriteReg(R0, 0x08000000)  returns 0x00 (0000ms, 3629ms total)
T0530 8800:247 JLINK_WriteReg(R1, 0x00002000)  returns 0x00 (0000ms, 3629ms total)
T0530 8800:247 JLINK_WriteReg(R2, 0x000000FF)  returns 0x00 (0000ms, 3629ms total)
T0530 8800:247 JLINK_WriteReg(R3, 0x00000000)  returns 0x00 (0000ms, 3629ms total)
T0530 8800:247 JLINK_WriteReg(R4, 0x00000000)  returns 0x00 (0000ms, 3629ms total)
T0530 8800:247 JLINK_WriteReg(R5, 0x00000000)  returns 0x00 (0000ms, 3629ms total)
T0530 8800:247 JLINK_WriteReg(R6, 0x00000000)  returns 0x00 (0000ms, 3629ms total)
T0530 8800:247 JLINK_WriteReg(R7, 0x00000000)  returns 0x00 (0000ms, 3629ms total)
T0530 8800:247 JLINK_WriteReg(R8, 0x00000000)  returns 0x00 (0000ms, 3629ms total)
T0530 8800:247 JLINK_WriteReg(R9, 0x200001F0)  returns 0x00 (0000ms, 3629ms total)
T0530 8800:247 JLINK_WriteReg(R10, 0x00000000)  returns 0x00 (0000ms, 3629ms total)
T0530 8800:247 JLINK_WriteReg(R11, 0x00000000)  returns 0x00 (0000ms, 3629ms total)
T0530 8800:247 JLINK_WriteReg(R12, 0x00000000)  returns 0x00 (0000ms, 3629ms total)
T0530 8800:247 JLINK_WriteReg(R13 (SP), 0x20000800)  returns 0x00 (0000ms, 3629ms total)
T0530 8800:247 JLINK_WriteReg(R14, 0x20000001)  returns 0x00 (0000ms, 3629ms total)
T0530 8800:247 JLINK_WriteReg(R15 (PC), 0x20000020)  returns 0x00 (0000ms, 3629ms total)
T0530 8800:247 JLINK_WriteReg(XPSR, 0x01000000)  returns 0x00 (0000ms, 3629ms total)
T0530 8800:247 JLINK_WriteReg(MSP, 0x20000800)  returns 0x00 (0000ms, 3629ms total)
T0530 8800:247 JLINK_WriteReg(PSP, 0x20000800)  returns 0x00 (0000ms, 3629ms total)
T0530 8800:247 JLINK_WriteReg(CFBP, 0x00000000)  returns 0x00 (0000ms, 3629ms total)
T0530 8800:247 JLINK_SetBPEx(Addr = 0x20000000, Type = 0xFFFFFFF2)  returns 0x00000002 (0000ms, 3629ms total)
T0530 8800:247 JLINK_Go() -- CPU_WriteMem(4 bytes @ 0xE0002000) -- CPU_ReadMem(4 bytes @ 0xE0001000) (0003ms, 3632ms total)
T0530 8800:251 JLINK_IsHalted()  returns TRUE (0003ms, 3636ms total)
T0530 8800:255 JLINK_ReadReg(R15 (PC)) -- CPU_ReadMem(4 bytes @ 0xE000EE08)  returns 0x20000000 (0000ms, 3633ms total)
T0530 8800:255 JLINK_ClrBPEx(BPHandle = 0x00000002)  returns 0x00 (0000ms, 3633ms total)
T0530 8800:255 JLINK_ReadReg(R0)  returns 0x00000001 (0000ms, 3633ms total)
T0530 8800:255 JLINK_WriteReg(R0, 0x08000000)  returns 0x00 (0000ms, 3633ms total)
T0530 8800:255 JLINK_WriteReg(R1, 0x00002000)  returns 0x00 (0000ms, 3633ms total)
T0530 8800:255 JLINK_WriteReg(R2, 0x000000FF)  returns 0x00 (0000ms, 3633ms total)
T0530 8800:255 JLINK_WriteReg(R3, 0x00000000)  returns 0x00 (0000ms, 3633ms total)
T0530 8800:255 JLINK_WriteReg(R4, 0x00000000)  returns 0x00 (0000ms, 3633ms total)
T0530 8800:255 JLINK_WriteReg(R5, 0x00000000)  returns 0x00 (0000ms, 3633ms total)
T0530 8800:255 JLINK_WriteReg(R6, 0x00000000)  returns 0x00 (0000ms, 3633ms total)
T0530 8800:255 JLINK_WriteReg(R7, 0x00000000)  returns 0x00 (0000ms, 3633ms total)
T0530 8800:255 JLINK_WriteReg(R8, 0x00000000)  returns 0x00 (0000ms, 3633ms total)
T0530 8800:255 JLINK_WriteReg(R9, 0x200001F0)  returns 0x00 (0000ms, 3633ms total)
T0530 8800:255 JLINK_WriteReg(R10, 0x00000000)  returns 0x00 (0000ms, 3633ms total)
T0530 8800:255 JLINK_WriteReg(R11, 0x00000000)  returns 0x00 (0000ms, 3633ms total)
T0530 8800:255 JLINK_WriteReg(R12, 0x00000000)  returns 0x00 (0000ms, 3633ms total)
T0530 8800:255 JLINK_WriteReg(R13 (SP), 0x20000800)  returns 0x00 (0000ms, 3633ms total)
T0530 8800:255 JLINK_WriteReg(R14, 0x20000001)  returns 0x00 (0000ms, 3633ms total)
T0530 8800:255 JLINK_WriteReg(R15 (PC), 0x20000110)  returns 0x00 (0000ms, 3633ms total)
T0530 8800:255 JLINK_WriteReg(XPSR, 0x01000000)  returns 0x00 (0000ms, 3633ms total)
T0530 8800:255 JLINK_WriteReg(MSP, 0x20000800)  returns 0x00 (0000ms, 3633ms total)
T0530 8800:255 JLINK_WriteReg(PSP, 0x20000800)  returns 0x00 (0000ms, 3633ms total)
T0530 8800:255 JLINK_WriteReg(CFBP, 0x00000000)  returns 0x00 (0000ms, 3633ms total)
T0530 8800:255 JLINK_SetBPEx(Addr = 0x20000000, Type = 0xFFFFFFF2)  returns 0x00000003 (0000ms, 3633ms total)
T0530 8800:255 JLINK_Go() -- CPU_WriteMem(4 bytes @ 0xE0002000) -- CPU_ReadMem(4 bytes @ 0xE0001000) (0004ms, 3637ms total)
T0530 8800:259 JLINK_IsHalted()  returns FALSE (0000ms, 3637ms total)
T0530 8800:289 JLINK_IsHalted()  returns TRUE (0004ms, 3641ms total)
T0530 8800:293 JLINK_ReadReg(R15 (PC)) -- CPU_ReadMem(4 bytes @ 0xE000EE08)  returns 0x20000000 (0000ms, 3637ms total)
T0530 8800:293 JLINK_ClrBPEx(BPHandle = 0x00000003)  returns 0x00 (0000ms, 3637ms total)
T0530 8800:293 JLINK_ReadReg(R0)  returns 0x00000000 (0000ms, 3637ms total)
T0530 8800:293 JLINK_WriteReg(R0, 0x08002000)  returns 0x00 (0000ms, 3637ms total)
T0530 8800:293 JLINK_WriteReg(R1, 0x00002000)  returns 0x00 (0000ms, 3637ms total)
T0530 8800:293 JLINK_WriteReg(R2, 0x000000FF)  returns 0x00 (0000ms, 3637ms total)
T0530 8800:293 JLINK_WriteReg(R3, 0x00000000)  returns 0x00 (0000ms, 3637ms total)
T0530 8800:293 JLINK_WriteReg(R4, 0x00000000)  returns 0x00 (0000ms, 3637ms total)
T0530 8800:293 JLINK_WriteReg(R5, 0x00000000)  returns 0x00 (0000ms, 3637ms total)
T0530 8800:293 JLINK_WriteReg(R6, 0x00000000)  returns 0x00 (0000ms, 3637ms total)
T0530 8800:293 JLINK_WriteReg(R7, 0x00000000)  returns 0x00 (0000ms, 3637ms total)
T0530 8800:293 JLINK_WriteReg(R8, 0x00000000)  returns 0x00 (0000ms, 3637ms total)
T0530 8800:293 JLINK_WriteReg(R9, 0x200001F0)  returns 0x00 (0000ms, 3637ms total)
T0530 8800:293 JLINK_WriteReg(R10, 0x00000000)  returns 0x00 (0000ms, 3637ms total)
T0530 8800:293 JLINK_WriteReg(R11, 0x00000000)  returns 0x00 (0000ms, 3637ms total)
T0530 8800:293 JLINK_WriteReg(R12, 0x00000000)  returns 0x00 (0000ms, 3637ms total)
T0530 8800:293 JLINK_WriteReg(R13 (SP), 0x20000800)  returns 0x00 (0000ms, 3637ms total)
T0530 8800:293 JLINK_WriteReg(R14, 0x20000001)  returns 0x00 (0000ms, 3637ms total)
T0530 8800:293 JLINK_WriteReg(R15 (PC), 0x20000020)  returns 0x00 (0000ms, 3637ms total)
T0530 8800:293 JLINK_WriteReg(XPSR, 0x01000000)  returns 0x00 (0000ms, 3637ms total)
T0530 8800:293 JLINK_WriteReg(MSP, 0x20000800)  returns 0x00 (0000ms, 3637ms total)
T0530 8800:293 JLINK_WriteReg(PSP, 0x20000800)  returns 0x00 (0000ms, 3637ms total)
T0530 8800:293 JLINK_WriteReg(CFBP, 0x00000000)  returns 0x00 (0000ms, 3637ms total)
T0530 8800:293 JLINK_SetBPEx(Addr = 0x20000000, Type = 0xFFFFFFF2)  returns 0x00000004 (0000ms, 3637ms total)
T0530 8800:293 JLINK_Go() -- CPU_WriteMem(4 bytes @ 0xE0002000) -- CPU_ReadMem(4 bytes @ 0xE0001000) (0004ms, 3641ms total)
T0530 8800:297 JLINK_IsHalted()  returns TRUE (0003ms, 3644ms total)
T0530 8800:300 JLINK_ReadReg(R15 (PC)) -- CPU_ReadMem(4 bytes @ 0xE000EE08)  returns 0x20000000 (0000ms, 3641ms total)
T0530 8800:300 JLINK_ClrBPEx(BPHandle = 0x00000004)  returns 0x00 (0000ms, 3641ms total)
T0530 8800:300 JLINK_ReadReg(R0)  returns 0x00000001 (0000ms, 3641ms total)
T0530 8800:300 JLINK_WriteReg(R0, 0x08002000)  returns 0x00 (0001ms, 3642ms total)
T0530 8800:301 JLINK_WriteReg(R1, 0x00002000)  returns 0x00 (0000ms, 3642ms total)
T0530 8800:301 JLINK_WriteReg(R2, 0x000000FF)  returns 0x00 (0000ms, 3642ms total)
T0530 8800:301 JLINK_WriteReg(R3, 0x00000000)  returns 0x00 (0000ms, 3642ms total)
T0530 8800:301 JLINK_WriteReg(R4, 0x00000000)  returns 0x00 (0000ms, 3642ms total)
T0530 8800:301 JLINK_WriteReg(R5, 0x00000000)  returns 0x00 (0000ms, 3642ms total)
T0530 8800:301 JLINK_WriteReg(R6, 0x00000000)  returns 0x00 (0000ms, 3642ms total)
T0530 8800:301 JLINK_WriteReg(R7, 0x00000000)  returns 0x00 (0000ms, 3642ms total)
T0530 8800:301 JLINK_WriteReg(R8, 0x00000000)  returns 0x00 (0000ms, 3642ms total)
T0530 8800:301 JLINK_WriteReg(R9, 0x200001F0)  returns 0x00 (0000ms, 3642ms total)
T0530 8800:301 JLINK_WriteReg(R10, 0x00000000)  returns 0x00 (0000ms, 3642ms total)
T0530 8800:301 JLINK_WriteReg(R11, 0x00000000)  returns 0x00 (0000ms, 3642ms total)
T0530 8800:301 JLINK_WriteReg(R12, 0x00000000)  returns 0x00 (0000ms, 3642ms total)
T0530 8800:301 JLINK_WriteReg(R13 (SP), 0x20000800)  returns 0x00 (0000ms, 3642ms total)
T0530 8800:301 JLINK_WriteReg(R14, 0x20000001)  returns 0x00 (0000ms, 3642ms total)
T0530 8800:301 JLINK_WriteReg(R15 (PC), 0x20000110)  returns 0x00 (0000ms, 3642ms total)
T0530 8800:301 JLINK_WriteReg(XPSR, 0x01000000)  returns 0x00 (0000ms, 3642ms total)
T0530 8800:301 JLINK_WriteReg(MSP, 0x20000800)  returns 0x00 (0000ms, 3642ms total)
T0530 8800:301 JLINK_WriteReg(PSP, 0x20000800)  returns 0x00 (0000ms, 3642ms total)
T0530 8800:301 JLINK_WriteReg(CFBP, 0x00000000)  returns 0x00 (0000ms, 3642ms total)
T0530 8800:301 JLINK_SetBPEx(Addr = 0x20000000, Type = 0xFFFFFFF2)  returns 0x00000005 (0000ms, 3642ms total)
T0530 8800:301 JLINK_Go() -- CPU_WriteMem(4 bytes @ 0xE0002000) -- CPU_ReadMem(4 bytes @ 0xE0001000) (0003ms, 3645ms total)
T0530 8800:304 JLINK_IsHalted()  returns FALSE (0001ms, 3646ms total)
T0530 8800:308 JLINK_IsHalted()  returns FALSE (0000ms, 3645ms total)
T0530 8800:310 JLINK_IsHalted()  returns FALSE (0001ms, 3646ms total)
T0530 8800:312 JLINK_IsHalted()  returns FALSE (0000ms, 3645ms total)
T0530 8800:314 JLINK_IsHalted()  returns FALSE (0000ms, 3645ms total)
T0530 8800:317 JLINK_IsHalted()  returns TRUE (0003ms, 3648ms total)
T0530 8800:320 JLINK_ReadReg(R15 (PC)) -- CPU_ReadMem(4 bytes @ 0xE000EE08)  returns 0x20000000 (0000ms, 3645ms total)
T0530 8800:320 JLINK_ClrBPEx(BPHandle = 0x00000005)  returns 0x00 (0000ms, 3645ms total)
T0530 8800:320 JLINK_ReadReg(R0)  returns 0x00000000 (0000ms, 3645ms total)
T0530 8800:320 JLINK_WriteReg(R0, 0x00000001)  returns 0x00 (0000ms, 3645ms total)
T0530 8800:320 JLINK_WriteReg(R1, 0x00002000)  returns 0x00 (0000ms, 3645ms total)
T0530 8800:320 JLINK_WriteReg(R2, 0x000000FF)  returns 0x00 (0000ms, 3645ms total)
T0530 8800:320 JLINK_WriteReg(R3, 0x00000000)  returns 0x00 (0000ms, 3645ms total)
T0530 8800:320 JLINK_WriteReg(R4, 0x00000000)  returns 0x00 (0000ms, 3645ms total)
T0530 8800:320 JLINK_WriteReg(R5, 0x00000000)  returns 0x00 (0000ms, 3645ms total)
T0530 8800:320 JLINK_WriteReg(R6, 0x00000000)  returns 0x00 (0001ms, 3646ms total)
T0530 8800:321 JLINK_WriteReg(R7, 0x00000000)  returns 0x00 (0000ms, 3646ms total)
T0530 8800:321 JLINK_WriteReg(R8, 0x00000000)  returns 0x00 (0000ms, 3646ms total)
T0530 8800:321 JLINK_WriteReg(R9, 0x200001F0)  returns 0x00 (0000ms, 3646ms total)
T0530 8800:321 JLINK_WriteReg(R10, 0x00000000)  returns 0x00 (0000ms, 3646ms total)
T0530 8800:321 JLINK_WriteReg(R11, 0x00000000)  returns 0x00 (0000ms, 3646ms total)
T0530 8800:321 JLINK_WriteReg(R12, 0x00000000)  returns 0x00 (0000ms, 3646ms total)
T0530 8800:321 JLINK_WriteReg(R13 (SP), 0x20000800)  returns 0x00 (0000ms, 3646ms total)
T0530 8800:321 JLINK_WriteReg(R14, 0x20000001)  returns 0x00 (0000ms, 3646ms total)
T0530 8800:321 JLINK_WriteReg(R15 (PC), 0x20000090)  returns 0x00 (0000ms, 3646ms total)
T0530 8800:321 JLINK_WriteReg(XPSR, 0x01000000)  returns 0x00 (0000ms, 3646ms total)
T0530 8800:321 JLINK_WriteReg(MSP, 0x20000800)  returns 0x00 (0000ms, 3646ms total)
T0530 8800:321 JLINK_WriteReg(PSP, 0x20000800)  returns 0x00 (0000ms, 3646ms total)
T0530 8800:321 JLINK_WriteReg(CFBP, 0x00000000)  returns 0x00 (0000ms, 3646ms total)
T0530 8800:321 JLINK_SetBPEx(Addr = 0x20000000, Type = 0xFFFFFFF2)  returns 0x00000006 (0000ms, 3646ms total)
T0530 8800:321 JLINK_Go() -- CPU_WriteMem(4 bytes @ 0xE0002000) -- CPU_ReadMem(4 bytes @ 0xE0001000) (0003ms, 3649ms total)
T0530 8800:324 JLINK_IsHalted()  returns TRUE (0004ms, 3653ms total)
T0530 8800:328 JLINK_ReadReg(R15 (PC)) -- CPU_ReadMem(4 bytes @ 0xE000EE08)  returns 0x20000000 (0000ms, 3649ms total)
T0530 8800:328 JLINK_ClrBPEx(BPHandle = 0x00000006)  returns 0x00 (0000ms, 3649ms total)
T0530 8800:328 JLINK_ReadReg(R0)  returns 0x00000000 (0000ms, 3649ms total)
T0530 8800:383 JLINK_WriteMem(0x20000000, 0x01F4 Bytes, ...) - Data: 00 BE 0A E0 0D 78 2D 06 68 40 08 24 40 00 00 D3 ... -- CPU_WriteMem(500 bytes @ 0x20000000)  returns 0x1F4 (0004ms, 3653ms total)
T0530 8800:387 JLINK_WriteReg(R0, 0x08000000)  returns 0x00 (0000ms, 3653ms total)
T0530 8800:387 JLINK_WriteReg(R1, 0x00B71B00)  returns 0x00 (0000ms, 3653ms total)
T0530 8800:387 JLINK_WriteReg(R2, 0x00000002)  returns 0x00 (0000ms, 3653ms total)
T0530 8800:387 JLINK_WriteReg(R3, 0x00000000)  returns 0x00 (0000ms, 3653ms total)
T0530 8800:387 JLINK_WriteReg(R4, 0x00000000)  returns 0x00 (0000ms, 3653ms total)
T0530 8800:387 JLINK_WriteReg(R5, 0x00000000)  returns 0x00 (0000ms, 3653ms total)
T0530 8800:387 JLINK_WriteReg(R6, 0x00000000)  returns 0x00 (0000ms, 3653ms total)
T0530 8800:387 JLINK_WriteReg(R7, 0x00000000)  returns 0x00 (0000ms, 3653ms total)
T0530 8800:387 JLINK_WriteReg(R8, 0x00000000)  returns 0x00 (0000ms, 3653ms total)
T0530 8800:387 JLINK_WriteReg(R9, 0x200001F0)  returns 0x00 (0000ms, 3653ms total)
T0530 8800:387 JLINK_WriteReg(R10, 0x00000000)  returns 0x00 (0000ms, 3653ms total)
T0530 8800:387 JLINK_WriteReg(R11, 0x00000000)  returns 0x00 (0000ms, 3653ms total)
T0530 8800:387 JLINK_WriteReg(R12, 0x00000000)  returns 0x00 (0000ms, 3653ms total)
T0530 8800:387 JLINK_WriteReg(R13 (SP), 0x20000800)  returns 0x00 (0000ms, 3653ms total)
T0530 8800:387 JLINK_WriteReg(R14, 0x20000001)  returns 0x00 (0000ms, 3653ms total)
T0530 8800:387 JLINK_WriteReg(R15 (PC), 0x20000038)  returns 0x00 (0000ms, 3653ms total)
T0530 8800:387 JLINK_WriteReg(XPSR, 0x01000000)  returns 0x00 (0000ms, 3653ms total)
T0530 8800:387 JLINK_WriteReg(MSP, 0x20000800)  returns 0x00 (0000ms, 3653ms total)
T0530 8800:388 JLINK_WriteReg(PSP, 0x20000800)  returns 0x00 (0000ms, 3653ms total)
T0530 8800:388 JLINK_WriteReg(CFBP, 0x00000000)  returns 0x00 (0000ms, 3653ms total)
T0530 8800:388 JLINK_SetBPEx(Addr = 0x20000000, Type = 0xFFFFFFF2)  returns 0x00000007 (0000ms, 3653ms total)
T0530 8800:388 JLINK_Go() -- CPU_WriteMem(4 bytes @ 0xE0002000) -- CPU_ReadMem(4 bytes @ 0xE0001000) (0004ms, 3657ms total)
T0530 8800:392 JLINK_IsHalted()  returns TRUE (0004ms, 3661ms total)
T0530 8800:396 JLINK_ReadReg(R15 (PC)) -- CPU_ReadMem(4 bytes @ 0xE000EE08)  returns 0x20000000 (0000ms, 3657ms total)
T0530 8800:396 JLINK_ClrBPEx(BPHandle = 0x00000007)  returns 0x00 (0000ms, 3657ms total)
T0530 8800:396 JLINK_ReadReg(R0)  returns 0x00000000 (0000ms, 3657ms total)
T0530 8800:396 JLINK_WriteMem(0x200001F8, 0x0208 Bytes, ...) - Data: 98 08 00 20 B5 01 00 08 99 07 00 08 91 07 00 08 ... -- CPU_WriteMem(520 bytes @ 0x200001F8)  returns 0x208 (0003ms, 3660ms total)
T0530 8800:399 JLINK_WriteMem(0x20000400, 0x01F8 Bytes, ...) - Data: 09 E0 21 FA 02 F5 9D 42 05 D3 03 FA 02 F5 49 1B ... -- CPU_WriteMem(504 bytes @ 0x20000400)  returns 0x1F8 (0004ms, 3664ms total)
T0530 8800:403 JLINK_WriteReg(R0, 0x08000000)  returns 0x00 (0000ms, 3664ms total)
T0530 8800:403 JLINK_WriteReg(R1, 0x00000400)  returns 0x00 (0000ms, 3664ms total)
T0530 8800:403 JLINK_WriteReg(R2, 0x200001F8)  returns 0x00 (0000ms, 3664ms total)
T0530 8800:403 JLINK_WriteReg(R3, 0x00000000)  returns 0x00 (0000ms, 3664ms total)
T0530 8800:403 JLINK_WriteReg(R4, 0x00000000)  returns 0x00 (0000ms, 3664ms total)
T0530 8800:403 JLINK_WriteReg(R5, 0x00000000)  returns 0x00 (0000ms, 3664ms total)
T0530 8800:403 JLINK_WriteReg(R6, 0x00000000)  returns 0x00 (0000ms, 3664ms total)
T0530 8800:403 JLINK_WriteReg(R7, 0x00000000)  returns 0x00 (0000ms, 3664ms total)
T0530 8800:403 JLINK_WriteReg(R8, 0x00000000)  returns 0x00 (0000ms, 3664ms total)
T0530 8800:403 JLINK_WriteReg(R9, 0x200001F0)  returns 0x00 (0000ms, 3664ms total)
T0530 8800:403 JLINK_WriteReg(R10, 0x00000000)  returns 0x00 (0000ms, 3664ms total)
T0530 8800:403 JLINK_WriteReg(R11, 0x00000000)  returns 0x00 (0000ms, 3664ms total)
T0530 8800:403 JLINK_WriteReg(R12, 0x00000000)  returns 0x00 (0000ms, 3664ms total)
T0530 8800:403 JLINK_WriteReg(R13 (SP), 0x20000800)  returns 0x00 (0000ms, 3664ms total)
T0530 8800:403 JLINK_WriteReg(R14, 0x20000001)  returns 0x00 (0000ms, 3664ms total)
T0530 8800:403 JLINK_WriteReg(R15 (PC), 0x2000017C)  returns 0x00 (0000ms, 3664ms total)
T0530 8800:403 JLINK_WriteReg(XPSR, 0x01000000)  returns 0x00 (0000ms, 3664ms total)
T0530 8800:403 JLINK_WriteReg(MSP, 0x20000800)  returns 0x00 (0000ms, 3664ms total)
T0530 8800:403 JLINK_WriteReg(PSP, 0x20000800)  returns 0x00 (0001ms, 3665ms total)
T0530 8800:404 JLINK_WriteReg(CFBP, 0x00000000)  returns 0x00 (0000ms, 3665ms total)
T0530 8800:404 JLINK_SetBPEx(Addr = 0x20000000, Type = 0xFFFFFFF2)  returns 0x00000008 (0000ms, 3665ms total)
T0530 8800:404 JLINK_Go() -- CPU_WriteMem(4 bytes @ 0xE0002000) -- CPU_ReadMem(4 bytes @ 0xE0001000) (0003ms, 3668ms total)
T0530 8800:407 JLINK_IsHalted()  returns FALSE (0001ms, 3669ms total)
T0530 8800:417 JLINK_IsHalted()  returns FALSE (0000ms, 3668ms total)
T0530 8800:419 JLINK_IsHalted()  returns FALSE (0001ms, 3669ms total)
T0530 8800:422 JLINK_IsHalted()  returns TRUE (0003ms, 3671ms total)
T0530 8800:425 JLINK_ReadReg(R15 (PC)) -- CPU_ReadMem(4 bytes @ 0xE000EE08)  returns 0x20000000 (0000ms, 3668ms total)
T0530 8800:425 JLINK_ClrBPEx(BPHandle = 0x00000008)  returns 0x00 (0000ms, 3668ms total)
T0530 8800:425 JLINK_ReadReg(R0)  returns 0x00000000 (0000ms, 3668ms total)
T0530 8800:425 JLINK_WriteMem(0x200001F8, 0x0208 Bytes, ...) - Data: 0A 54 C1 F3 0A 55 2C 44 A4 F2 F3 34 01 94 A0 FB ... -- CPU_WriteMem(520 bytes @ 0x200001F8)  returns 0x208 (0004ms, 3672ms total)
T0530 8800:429 JLINK_WriteMem(0x20000400, 0x01F8 Bytes, ...) - Data: 94 E8 07 00 98 47 10 34 AC 42 F6 D3 FF F7 C8 FD ... -- CPU_WriteMem(504 bytes @ 0x20000400)  returns 0x1F8 (0004ms, 3676ms total)
T0530 8800:433 JLINK_WriteReg(R0, 0x08000400)  returns 0x00 (0000ms, 3676ms total)
T0530 8800:433 JLINK_WriteReg(R1, 0x00000400)  returns 0x00 (0000ms, 3676ms total)
T0530 8800:433 JLINK_WriteReg(R2, 0x200001F8)  returns 0x00 (0000ms, 3676ms total)
T0530 8800:433 JLINK_WriteReg(R3, 0x00000000)  returns 0x00 (0000ms, 3676ms total)
T0530 8800:433 JLINK_WriteReg(R4, 0x00000000)  returns 0x00 (0000ms, 3676ms total)
T0530 8800:433 JLINK_WriteReg(R5, 0x00000000)  returns 0x00 (0000ms, 3676ms total)
T0530 8800:433 JLINK_WriteReg(R6, 0x00000000)  returns 0x00 (0000ms, 3676ms total)
T0530 8800:433 JLINK_WriteReg(R7, 0x00000000)  returns 0x00 (0000ms, 3676ms total)
T0530 8800:433 JLINK_WriteReg(R8, 0x00000000)  returns 0x00 (0000ms, 3676ms total)
T0530 8800:433 JLINK_WriteReg(R9, 0x200001F0)  returns 0x00 (0000ms, 3676ms total)
T0530 8800:433 JLINK_WriteReg(R10, 0x00000000)  returns 0x00 (0000ms, 3676ms total)
T0530 8800:433 JLINK_WriteReg(R11, 0x00000000)  returns 0x00 (0000ms, 3676ms total)
T0530 8800:433 JLINK_WriteReg(R12, 0x00000000)  returns 0x00 (0000ms, 3676ms total)
T0530 8800:433 JLINK_WriteReg(R13 (SP), 0x20000800)  returns 0x00 (0000ms, 3676ms total)
T0530 8800:433 JLINK_WriteReg(R14, 0x20000001)  returns 0x00 (0000ms, 3676ms total)
T0530 8800:433 JLINK_WriteReg(R15 (PC), 0x2000017C)  returns 0x00 (0000ms, 3676ms total)
T0530 8800:433 JLINK_WriteReg(XPSR, 0x01000000)  returns 0x00 (0000ms, 3676ms total)
T0530 8800:433 JLINK_WriteReg(MSP, 0x20000800)  returns 0x00 (0000ms, 3676ms total)
T0530 8800:433 JLINK_WriteReg(PSP, 0x20000800)  returns 0x00 (0000ms, 3676ms total)
T0530 8800:433 JLINK_WriteReg(CFBP, 0x00000000)  returns 0x00 (0000ms, 3676ms total)
T0530 8800:433 JLINK_SetBPEx(Addr = 0x20000000, Type = 0xFFFFFFF2)  returns 0x00000009 (0000ms, 3676ms total)
T0530 8800:433 JLINK_Go() -- CPU_WriteMem(4 bytes @ 0xE0002000) -- CPU_ReadMem(4 bytes @ 0xE0001000) (0004ms, 3680ms total)
T0530 8800:437 JLINK_IsHalted()  returns FALSE (0000ms, 3680ms total)
T0530 8800:443 JLINK_IsHalted()  returns FALSE (0000ms, 3680ms total)
T0530 8800:445 JLINK_IsHalted()  returns FALSE (0000ms, 3680ms total)
T0530 8800:447 JLINK_IsHalted()  returns FALSE (0000ms, 3680ms total)
T0530 8800:449 JLINK_IsHalted()  returns FALSE (0000ms, 3680ms total)
T0530 8800:451 JLINK_IsHalted()  returns TRUE (0004ms, 3684ms total)
T0530 8800:455 JLINK_ReadReg(R15 (PC)) -- CPU_ReadMem(4 bytes @ 0xE000EE08)  returns 0x20000000 (0000ms, 3680ms total)
T0530 8800:455 JLINK_ClrBPEx(BPHandle = 0x00000009)  returns 0x00 (0000ms, 3680ms total)
T0530 8800:455 JLINK_ReadReg(R0)  returns 0x00000000 (0000ms, 3680ms total)
T0530 8800:455 JLINK_WriteMem(0x200001F8, 0x0208 Bytes, ...) - Data: 80 B5 00 F0 F9 F8 80 BD 80 B5 82 B0 4E F6 88 50 ... -- CPU_WriteMem(520 bytes @ 0x200001F8)  returns 0x208 (0004ms, 3684ms total)
T0530 8800:459 JLINK_WriteMem(0x20000400, 0x01F8 Bytes, ...) - Data: 40 F2 08 00 C2 F2 00 00 01 68 01 39 01 60 FF E7 ... -- CPU_WriteMem(504 bytes @ 0x20000400)  returns 0x1F8 (0004ms, 3688ms total)
T0530 8800:463 JLINK_WriteReg(R0, 0x08000800)  returns 0x00 (0000ms, 3688ms total)
T0530 8800:463 JLINK_WriteReg(R1, 0x00000400)  returns 0x00 (0000ms, 3688ms total)
T0530 8800:463 JLINK_WriteReg(R2, 0x200001F8)  returns 0x00 (0000ms, 3688ms total)
T0530 8800:463 JLINK_WriteReg(R3, 0x00000000)  returns 0x00 (0000ms, 3688ms total)
T0530 8800:463 JLINK_WriteReg(R4, 0x00000000)  returns 0x00 (0000ms, 3688ms total)
T0530 8800:463 JLINK_WriteReg(R5, 0x00000000)  returns 0x00 (0000ms, 3688ms total)
T0530 8800:463 JLINK_WriteReg(R6, 0x00000000)  returns 0x00 (0000ms, 3688ms total)
T0530 8800:463 JLINK_WriteReg(R7, 0x00000000)  returns 0x00 (0000ms, 3688ms total)
T0530 8800:463 JLINK_WriteReg(R8, 0x00000000)  returns 0x00 (0000ms, 3688ms total)
T0530 8800:463 JLINK_WriteReg(R9, 0x200001F0)  returns 0x00 (0000ms, 3688ms total)
T0530 8800:463 JLINK_WriteReg(R10, 0x00000000)  returns 0x00 (0000ms, 3688ms total)
T0530 8800:463 JLINK_WriteReg(R11, 0x00000000)  returns 0x00 (0000ms, 3688ms total)
T0530 8800:463 JLINK_WriteReg(R12, 0x00000000)  returns 0x00 (0000ms, 3688ms total)
T0530 8800:463 JLINK_WriteReg(R13 (SP), 0x20000800)  returns 0x00 (0000ms, 3688ms total)
T0530 8800:463 JLINK_WriteReg(R14, 0x20000001)  returns 0x00 (0000ms, 3688ms total)
T0530 8800:463 JLINK_WriteReg(R15 (PC), 0x2000017C)  returns 0x00 (0000ms, 3688ms total)
T0530 8800:463 JLINK_WriteReg(XPSR, 0x01000000)  returns 0x00 (0000ms, 3688ms total)
T0530 8800:463 JLINK_WriteReg(MSP, 0x20000800)  returns 0x00 (0000ms, 3688ms total)
T0530 8800:463 JLINK_WriteReg(PSP, 0x20000800)  returns 0x00 (0000ms, 3688ms total)
T0530 8800:463 JLINK_WriteReg(CFBP, 0x00000000)  returns 0x00 (0000ms, 3688ms total)
T0530 8800:463 JLINK_SetBPEx(Addr = 0x20000000, Type = 0xFFFFFFF2)  returns 0x0000000A (0000ms, 3688ms total)
T0530 8800:463 JLINK_Go() -- CPU_WriteMem(4 bytes @ 0xE0002000) -- CPU_ReadMem(4 bytes @ 0xE0001000) (0004ms, 3692ms total)
T0530 8800:467 JLINK_IsHalted()  returns FALSE (0001ms, 3693ms total)
T0530 8800:471 JLINK_IsHalted()  returns FALSE (0000ms, 3692ms total)
T0530 8800:475 JLINK_IsHalted()  returns FALSE (0000ms, 3692ms total)
T0530 8800:477 JLINK_IsHalted()  returns FALSE (0000ms, 3692ms total)
T0530 8800:479 JLINK_IsHalted()  returns FALSE (0000ms, 3692ms total)
T0530 8800:481 JLINK_IsHalted()  returns TRUE (0003ms, 3695ms total)
T0530 8800:484 JLINK_ReadReg(R15 (PC)) -- CPU_ReadMem(4 bytes @ 0xE000EE08)  returns 0x20000000 (0000ms, 3692ms total)
T0530 8800:484 JLINK_ClrBPEx(BPHandle = 0x0000000A)  returns 0x00 (0000ms, 3692ms total)
T0530 8800:484 JLINK_ReadReg(R0)  returns 0x00000000 (0000ms, 3692ms total)
T0530 8800:484 JLINK_WriteMem(0x200001F8, 0x0208 Bytes, ...) - Data: 82 02 01 EB 82 01 C8 60 07 98 9D F8 1B 10 01 EB ... -- CPU_WriteMem(520 bytes @ 0x200001F8)  returns 0x208 (0005ms, 3697ms total)
T0530 8800:489 JLINK_WriteMem(0x20000400, 0x01F8 Bytes, ...) - Data: 00 68 06 99 9D F8 1F 20 92 00 91 40 08 40 04 90 ... -- CPU_WriteMem(504 bytes @ 0x20000400)  returns 0x1F8 (0004ms, 3701ms total)
T0530 8800:494 JLINK_WriteReg(R0, 0x08000C00)  returns 0x00 (0000ms, 3701ms total)
T0530 8800:494 JLINK_WriteReg(R1, 0x00000400)  returns 0x00 (0000ms, 3701ms total)
T0530 8800:494 JLINK_WriteReg(R2, 0x200001F8)  returns 0x00 (0000ms, 3701ms total)
T0530 8800:494 JLINK_WriteReg(R3, 0x00000000)  returns 0x00 (0000ms, 3701ms total)
T0530 8800:494 JLINK_WriteReg(R4, 0x00000000)  returns 0x00 (0000ms, 3701ms total)
T0530 8800:494 JLINK_WriteReg(R5, 0x00000000)  returns 0x00 (0000ms, 3701ms total)
T0530 8800:494 JLINK_WriteReg(R6, 0x00000000)  returns 0x00 (0000ms, 3701ms total)
T0530 8800:494 JLINK_WriteReg(R7, 0x00000000)  returns 0x00 (0000ms, 3701ms total)
T0530 8800:494 JLINK_WriteReg(R8, 0x00000000)  returns 0x00 (0000ms, 3701ms total)
T0530 8800:494 JLINK_WriteReg(R9, 0x200001F0)  returns 0x00 (0000ms, 3701ms total)
T0530 8800:494 JLINK_WriteReg(R10, 0x00000000)  returns 0x00 (0000ms, 3701ms total)
T0530 8800:494 JLINK_WriteReg(R11, 0x00000000)  returns 0x00 (0000ms, 3701ms total)
T0530 8800:494 JLINK_WriteReg(R12, 0x00000000)  returns 0x00 (0000ms, 3701ms total)
T0530 8800:494 JLINK_WriteReg(R13 (SP), 0x20000800)  returns 0x00 (0000ms, 3701ms total)
T0530 8800:494 JLINK_WriteReg(R14, 0x20000001)  returns 0x00 (0000ms, 3701ms total)
T0530 8800:494 JLINK_WriteReg(R15 (PC), 0x2000017C)  returns 0x00 (0000ms, 3701ms total)
T0530 8800:494 JLINK_WriteReg(XPSR, 0x01000000)  returns 0x00 (0000ms, 3701ms total)
T0530 8800:494 JLINK_WriteReg(MSP, 0x20000800)  returns 0x00 (0000ms, 3701ms total)
T0530 8800:494 JLINK_WriteReg(PSP, 0x20000800)  returns 0x00 (0000ms, 3701ms total)
T0530 8800:494 JLINK_WriteReg(CFBP, 0x00000000)  returns 0x00 (0000ms, 3701ms total)
T0530 8800:494 JLINK_SetBPEx(Addr = 0x20000000, Type = 0xFFFFFFF2)  returns 0x0000000B (0000ms, 3701ms total)
T0530 8800:494 JLINK_Go() -- CPU_WriteMem(4 bytes @ 0xE0002000) -- CPU_ReadMem(4 bytes @ 0xE0001000) (0004ms, 3705ms total)
T0530 8800:498 JLINK_IsHalted()  returns FALSE (0000ms, 3705ms total)
T0530 8800:501 JLINK_IsHalted()  returns FALSE (0000ms, 3705ms total)
T0530 8800:504 JLINK_IsHalted()  returns FALSE (0000ms, 3705ms total)
T0530 8800:506 JLINK_IsHalted()  returns FALSE (0000ms, 3705ms total)
T0530 8800:508 JLINK_IsHalted()  returns FALSE (0000ms, 3705ms total)
T0530 8800:510 JLINK_IsHalted()  returns TRUE (0003ms, 3708ms total)
T0530 8800:513 JLINK_ReadReg(R15 (PC)) -- CPU_ReadMem(4 bytes @ 0xE000EE08)  returns 0x20000000 (0001ms, 3706ms total)
T0530 8800:514 JLINK_ClrBPEx(BPHandle = 0x0000000B)  returns 0x00 (0000ms, 3706ms total)
T0530 8800:514 JLINK_ReadReg(R0)  returns 0x00000000 (0000ms, 3706ms total)
T0530 8800:514 JLINK_WriteMem(0x200001F8, 0x0208 Bytes, ...) - Data: BD F8 1A 00 07 28 46 D8 FF E7 BD F8 1A 00 01 21 ... -- CPU_WriteMem(520 bytes @ 0x200001F8)  returns 0x208 (0004ms, 3710ms total)
T0530 8800:518 JLINK_WriteMem(0x20000400, 0x01F8 Bytes, ...) - Data: 0C 50 CE F2 00 00 00 68 00 F4 E0 60 B0 F5 E0 6F ... -- CPU_WriteMem(504 bytes @ 0x20000400)  returns 0x1F8 (0003ms, 3713ms total)
T0530 8800:522 JLINK_WriteReg(R0, 0x08001000)  returns 0x00 (0000ms, 3713ms total)
T0530 8800:522 JLINK_WriteReg(R1, 0x00000400)  returns 0x00 (0000ms, 3713ms total)
T0530 8800:522 JLINK_WriteReg(R2, 0x200001F8)  returns 0x00 (0000ms, 3713ms total)
T0530 8800:522 JLINK_WriteReg(R3, 0x00000000)  returns 0x00 (0000ms, 3713ms total)
T0530 8800:522 JLINK_WriteReg(R4, 0x00000000)  returns 0x00 (0000ms, 3713ms total)
T0530 8800:522 JLINK_WriteReg(R5, 0x00000000)  returns 0x00 (0000ms, 3713ms total)
T0530 8800:522 JLINK_WriteReg(R6, 0x00000000)  returns 0x00 (0000ms, 3713ms total)
T0530 8800:522 JLINK_WriteReg(R7, 0x00000000)  returns 0x00 (0000ms, 3713ms total)
T0530 8800:522 JLINK_WriteReg(R8, 0x00000000)  returns 0x00 (0000ms, 3713ms total)
T0530 8800:522 JLINK_WriteReg(R9, 0x200001F0)  returns 0x00 (0000ms, 3713ms total)
T0530 8800:522 JLINK_WriteReg(R10, 0x00000000)  returns 0x00 (0000ms, 3713ms total)
T0530 8800:522 JLINK_WriteReg(R11, 0x00000000)  returns 0x00 (0000ms, 3713ms total)
T0530 8800:522 JLINK_WriteReg(R12, 0x00000000)  returns 0x00 (0000ms, 3713ms total)
T0530 8800:522 JLINK_WriteReg(R13 (SP), 0x20000800)  returns 0x00 (0000ms, 3713ms total)
T0530 8800:522 JLINK_WriteReg(R14, 0x20000001)  returns 0x00 (0000ms, 3713ms total)
T0530 8800:522 JLINK_WriteReg(R15 (PC), 0x2000017C)  returns 0x00 (0000ms, 3713ms total)
T0530 8800:522 JLINK_WriteReg(XPSR, 0x01000000)  returns 0x00 (0000ms, 3713ms total)
T0530 8800:522 JLINK_WriteReg(MSP, 0x20000800)  returns 0x00 (0000ms, 3713ms total)
T0530 8800:522 JLINK_WriteReg(PSP, 0x20000800)  returns 0x00 (0000ms, 3713ms total)
T0530 8800:522 JLINK_WriteReg(CFBP, 0x00000000)  returns 0x00 (0000ms, 3713ms total)
T0530 8800:522 JLINK_SetBPEx(Addr = 0x20000000, Type = 0xFFFFFFF2)  returns 0x0000000C (0000ms, 3713ms total)
T0530 8800:522 JLINK_Go() -- CPU_WriteMem(4 bytes @ 0xE0002000) -- CPU_ReadMem(4 bytes @ 0xE0001000) (0003ms, 3716ms total)
T0530 8800:525 JLINK_IsHalted()  returns FALSE (0001ms, 3717ms total)
T0530 8800:529 JLINK_IsHalted()  returns FALSE (0001ms, 3717ms total)
T0530 8800:532 JLINK_IsHalted()  returns FALSE (0000ms, 3716ms total)
T0530 8800:533 JLINK_IsHalted()  returns FALSE (0000ms, 3716ms total)
T0530 8800:537 JLINK_IsHalted()  returns FALSE (0000ms, 3716ms total)
T0530 8800:539 JLINK_IsHalted()  returns TRUE (0003ms, 3719ms total)
T0530 8800:542 JLINK_ReadReg(R15 (PC)) -- CPU_ReadMem(4 bytes @ 0xE000EE08)  returns 0x20000000 (0000ms, 3716ms total)
T0530 8800:542 JLINK_ClrBPEx(BPHandle = 0x0000000C)  returns 0x00 (0000ms, 3716ms total)
T0530 8800:542 JLINK_ReadReg(R0)  returns 0x00000000 (0000ms, 3716ms total)
T0530 8800:543 JLINK_WriteMem(0x200001F8, 0x0208 Bytes, ...) - Data: B0 F5 80 3F 2C D1 FF E7 41 F2 2C 00 C4 F2 02 00 ... -- CPU_WriteMem(520 bytes @ 0x200001F8)  returns 0x208 (0004ms, 3720ms total)
T0530 8800:547 JLINK_WriteMem(0x20000400, 0x01F8 Bytes, ...) - Data: 02 F2 80 09 41 F2 00 03 C4 F2 02 03 50 F8 03 C0 ... -- CPU_WriteMem(504 bytes @ 0x20000400)  returns 0x1F8 (0004ms, 3724ms total)
T0530 8800:551 JLINK_WriteReg(R0, 0x08001400)  returns 0x00 (0000ms, 3724ms total)
T0530 8800:551 JLINK_WriteReg(R1, 0x00000400)  returns 0x00 (0000ms, 3724ms total)
T0530 8800:551 JLINK_WriteReg(R2, 0x200001F8)  returns 0x00 (0001ms, 3725ms total)
T0530 8800:552 JLINK_WriteReg(R3, 0x00000000)  returns 0x00 (0000ms, 3725ms total)
T0530 8800:552 JLINK_WriteReg(R4, 0x00000000)  returns 0x00 (0000ms, 3725ms total)
T0530 8800:552 JLINK_WriteReg(R5, 0x00000000)  returns 0x00 (0000ms, 3725ms total)
T0530 8800:552 JLINK_WriteReg(R6, 0x00000000)  returns 0x00 (0000ms, 3725ms total)
T0530 8800:552 JLINK_WriteReg(R7, 0x00000000)  returns 0x00 (0000ms, 3725ms total)
T0530 8800:552 JLINK_WriteReg(R8, 0x00000000)  returns 0x00 (0000ms, 3725ms total)
T0530 8800:552 JLINK_WriteReg(R9, 0x200001F0)  returns 0x00 (0000ms, 3725ms total)
T0530 8800:552 JLINK_WriteReg(R10, 0x00000000)  returns 0x00 (0000ms, 3725ms total)
T0530 8800:552 JLINK_WriteReg(R11, 0x00000000)  returns 0x00 (0000ms, 3725ms total)
T0530 8800:552 JLINK_WriteReg(R12, 0x00000000)  returns 0x00 (0000ms, 3725ms total)
T0530 8800:552 JLINK_WriteReg(R13 (SP), 0x20000800)  returns 0x00 (0000ms, 3725ms total)
T0530 8800:552 JLINK_WriteReg(R14, 0x20000001)  returns 0x00 (0000ms, 3725ms total)
T0530 8800:552 JLINK_WriteReg(R15 (PC), 0x2000017C)  returns 0x00 (0000ms, 3725ms total)
T0530 8800:552 JLINK_WriteReg(XPSR, 0x01000000)  returns 0x00 (0000ms, 3725ms total)
T0530 8800:552 JLINK_WriteReg(MSP, 0x20000800)  returns 0x00 (0000ms, 3725ms total)
T0530 8800:552 JLINK_WriteReg(PSP, 0x20000800)  returns 0x00 (0000ms, 3725ms total)
T0530 8800:552 JLINK_WriteReg(CFBP, 0x00000000)  returns 0x00 (0000ms, 3725ms total)
T0530 8800:552 JLINK_SetBPEx(Addr = 0x20000000, Type = 0xFFFFFFF2)  returns 0x0000000D (0000ms, 3725ms total)
T0530 8800:552 JLINK_Go() -- CPU_WriteMem(4 bytes @ 0xE0002000) -- CPU_ReadMem(4 bytes @ 0xE0001000) (0003ms, 3728ms total)
T0530 8800:555 JLINK_IsHalted()  returns FALSE (0001ms, 3729ms total)
T0530 8800:559 JLINK_IsHalted()  returns FALSE (0000ms, 3728ms total)
T0530 8800:561 JLINK_IsHalted()  returns FALSE (0000ms, 3728ms total)
T0530 8800:563 JLINK_IsHalted()  returns FALSE (0000ms, 3728ms total)
T0530 8800:566 JLINK_IsHalted()  returns FALSE (0000ms, 3728ms total)
T0530 8800:569 JLINK_IsHalted()  returns TRUE (0003ms, 3731ms total)
T0530 8800:572 JLINK_ReadReg(R15 (PC)) -- CPU_ReadMem(4 bytes @ 0xE000EE08)  returns 0x20000000 (0000ms, 3728ms total)
T0530 8800:572 JLINK_ClrBPEx(BPHandle = 0x0000000D)  returns 0x00 (0000ms, 3728ms total)
T0530 8800:572 JLINK_ReadReg(R0)  returns 0x00000000 (0000ms, 3728ms total)
T0530 8800:572 JLINK_WriteMem(0x200001F8, 0x0208 Bytes, ...) - Data: 11 43 01 60 41 F2 00 00 C4 F2 02 00 01 68 41 F0 ... -- CPU_WriteMem(520 bytes @ 0x200001F8)  returns 0x208 (0005ms, 3733ms total)
T0530 8800:577 JLINK_WriteMem(0x20000400, 0x01F8 Bytes, ...) - Data: 07 99 FF F7 47 F8 03 98 0A 90 05 99 0B 91 8D F8 ... -- CPU_WriteMem(504 bytes @ 0x20000400)  returns 0x1F8 (0004ms, 3737ms total)
T0530 8800:581 JLINK_WriteReg(R0, 0x08001800)  returns 0x00 (0000ms, 3737ms total)
T0530 8800:581 JLINK_WriteReg(R1, 0x00000400)  returns 0x00 (0000ms, 3737ms total)
T0530 8800:581 JLINK_WriteReg(R2, 0x200001F8)  returns 0x00 (0000ms, 3737ms total)
T0530 8800:581 JLINK_WriteReg(R3, 0x00000000)  returns 0x00 (0000ms, 3737ms total)
T0530 8800:581 JLINK_WriteReg(R4, 0x00000000)  returns 0x00 (0000ms, 3737ms total)
T0530 8800:581 JLINK_WriteReg(R5, 0x00000000)  returns 0x00 (0000ms, 3737ms total)
T0530 8800:581 JLINK_WriteReg(R6, 0x00000000)  returns 0x00 (0000ms, 3737ms total)
T0530 8800:581 JLINK_WriteReg(R7, 0x00000000)  returns 0x00 (0000ms, 3737ms total)
T0530 8800:581 JLINK_WriteReg(R8, 0x00000000)  returns 0x00 (0000ms, 3737ms total)
T0530 8800:581 JLINK_WriteReg(R9, 0x200001F0)  returns 0x00 (0000ms, 3737ms total)
T0530 8800:581 JLINK_WriteReg(R10, 0x00000000)  returns 0x00 (0000ms, 3737ms total)
T0530 8800:581 JLINK_WriteReg(R11, 0x00000000)  returns 0x00 (0000ms, 3737ms total)
T0530 8800:581 JLINK_WriteReg(R12, 0x00000000)  returns 0x00 (0000ms, 3737ms total)
T0530 8800:581 JLINK_WriteReg(R13 (SP), 0x20000800)  returns 0x00 (0000ms, 3737ms total)
T0530 8800:581 JLINK_WriteReg(R14, 0x20000001)  returns 0x00 (0000ms, 3737ms total)
T0530 8800:581 JLINK_WriteReg(R15 (PC), 0x2000017C)  returns 0x00 (0000ms, 3737ms total)
T0530 8800:581 JLINK_WriteReg(XPSR, 0x01000000)  returns 0x00 (0000ms, 3737ms total)
T0530 8800:581 JLINK_WriteReg(MSP, 0x20000800)  returns 0x00 (0000ms, 3737ms total)
T0530 8800:581 JLINK_WriteReg(PSP, 0x20000800)  returns 0x00 (0000ms, 3737ms total)
T0530 8800:581 JLINK_WriteReg(CFBP, 0x00000000)  returns 0x00 (0000ms, 3737ms total)
T0530 8800:581 JLINK_SetBPEx(Addr = 0x20000000, Type = 0xFFFFFFF2)  returns 0x0000000E (0000ms, 3737ms total)
T0530 8800:581 JLINK_Go() -- CPU_WriteMem(4 bytes @ 0xE0002000) -- CPU_ReadMem(4 bytes @ 0xE0001000) (0003ms, 3740ms total)
T0530 8800:584 JLINK_IsHalted()  returns FALSE (0000ms, 3740ms total)
T0530 8800:588 JLINK_IsHalted()  returns FALSE (0000ms, 3740ms total)
T0530 8800:590 JLINK_IsHalted()  returns FALSE (0000ms, 3740ms total)
T0530 8800:592 JLINK_IsHalted()  returns FALSE (0000ms, 3740ms total)
T0530 8800:594 JLINK_IsHalted()  returns FALSE (0000ms, 3740ms total)
T0530 8800:597 JLINK_IsHalted()  returns TRUE (0003ms, 3743ms total)
T0530 8800:600 JLINK_ReadReg(R15 (PC)) -- CPU_ReadMem(4 bytes @ 0xE000EE08)  returns 0x20000000 (0000ms, 3740ms total)
T0530 8800:600 JLINK_ClrBPEx(BPHandle = 0x0000000E)  returns 0x00 (0000ms, 3740ms total)
T0530 8800:600 JLINK_ReadReg(R0)  returns 0x00000000 (0000ms, 3740ms total)
T0530 8800:600 JLINK_WriteMem(0x200001F8, 0x0208 Bytes, ...) - Data: C4 F2 01 01 88 42 31 D1 FF E7 09 98 00 68 00 04 ... -- CPU_WriteMem(520 bytes @ 0x200001F8)  returns 0x208 (0004ms, 3744ms total)
T0530 8800:605 JLINK_WriteMem(0x20000400, 0x01F8 Bytes, ...) - Data: 01 98 01 68 41 F0 01 01 01 60 05 E0 01 98 C1 68 ... -- CPU_WriteMem(504 bytes @ 0x20000400)  returns 0x1F8 (0003ms, 3747ms total)
T0530 8800:608 JLINK_WriteReg(R0, 0x08001C00)  returns 0x00 (0000ms, 3747ms total)
T0530 8800:608 JLINK_WriteReg(R1, 0x00000400)  returns 0x00 (0000ms, 3747ms total)
T0530 8800:608 JLINK_WriteReg(R2, 0x200001F8)  returns 0x00 (0000ms, 3747ms total)
T0530 8800:608 JLINK_WriteReg(R3, 0x00000000)  returns 0x00 (0001ms, 3748ms total)
T0530 8800:609 JLINK_WriteReg(R4, 0x00000000)  returns 0x00 (0000ms, 3748ms total)
T0530 8800:609 JLINK_WriteReg(R5, 0x00000000)  returns 0x00 (0000ms, 3748ms total)
T0530 8800:609 JLINK_WriteReg(R6, 0x00000000)  returns 0x00 (0000ms, 3748ms total)
T0530 8800:609 JLINK_WriteReg(R7, 0x00000000)  returns 0x00 (0000ms, 3748ms total)
T0530 8800:609 JLINK_WriteReg(R8, 0x00000000)  returns 0x00 (0000ms, 3748ms total)
T0530 8800:609 JLINK_WriteReg(R9, 0x200001F0)  returns 0x00 (0000ms, 3748ms total)
T0530 8800:609 JLINK_WriteReg(R10, 0x00000000)  returns 0x00 (0000ms, 3748ms total)
T0530 8800:609 JLINK_WriteReg(R11, 0x00000000)  returns 0x00 (0000ms, 3748ms total)
T0530 8800:609 JLINK_WriteReg(R12, 0x00000000)  returns 0x00 (0000ms, 3748ms total)
T0530 8800:609 JLINK_WriteReg(R13 (SP), 0x20000800)  returns 0x00 (0000ms, 3748ms total)
T0530 8800:609 JLINK_WriteReg(R14, 0x20000001)  returns 0x00 (0000ms, 3748ms total)
T0530 8800:609 JLINK_WriteReg(R15 (PC), 0x2000017C)  returns 0x00 (0000ms, 3748ms total)
T0530 8800:609 JLINK_WriteReg(XPSR, 0x01000000)  returns 0x00 (0000ms, 3748ms total)
T0530 8800:609 JLINK_WriteReg(MSP, 0x20000800)  returns 0x00 (0000ms, 3748ms total)
T0530 8800:609 JLINK_WriteReg(PSP, 0x20000800)  returns 0x00 (0000ms, 3748ms total)
T0530 8800:609 JLINK_WriteReg(CFBP, 0x00000000)  returns 0x00 (0000ms, 3748ms total)
